
T2E2C 000:353 SEGGER J-Link V5.12e Log File (0001ms, 0289ms total)
T2E2C 000:353 DLL Compiled: Apr 29 2016 15:03:58 (0001ms, 0289ms total)
T2E2C 000:353 Logging started @ 2016-12-17 17:15 (0001ms, 0289ms total)
T2E2C 000:354 JLINK_SetWarnOutHandler(...) (0000ms, 0289ms total)
T2E2C 000:354 JLINK_OpenEx(...)
Firmware: J-Link ARM V8 compiled Nov 28 2014 13:44:46
Hardware: V8.00
S/N: 304439649
Feature(s): RDI,FlashDL,FlashBP,JFlash,GDBFULL  returns O.K. (0263ms, 0552ms total)
T2E2C 000:617 JLINK_SetErrorOutHandler(...) (0000ms, 0552ms total)
T2E2C 000:617 JLINK_ExecCommand("ProjectFile = "C:\Users\Rainy\Desktop\匿名\飞控程序备份\sbus\F407_FC_ANO\JLinkSettings.ini"", ...)  returns 0x00 (0024ms, 0576ms total)
T2E2C 000:643 JLINK_ExecCommand("Device = STM32F407VG", ...)Device "STM32F407VG" selected.  returns 0x00 (0004ms, 0580ms total)
T2E2C 000:647 JLINK_ExecCommand("DisableConnectionTimeout", ...)  returns 0x01 (0000ms, 0580ms total)
T2E2C 000:647 JLINK_GetHardwareVersion()  returns 0x13880 (0000ms, 0580ms total)
T2E2C 000:647 JLINK_GetDLLVersion()  returns 51205 (0000ms, 0580ms total)
T2E2C 000:647 JLINK_GetFirmwareString(...) (0000ms, 0580ms total)
T2E2C 000:650 JLINK_GetDLLVersion()  returns 51205 (0000ms, 0580ms total)
T2E2C 000:650 JLINK_GetCompileDateTime() (0000ms, 0580ms total)
T2E2C 000:696 JLINK_GetFirmwareString(...) (0000ms, 0580ms total)
T2E2C 000:699 JLINK_GetHardwareVersion()  returns 0x13880 (0001ms, 0581ms total)
T2E2C 000:710 JLINK_TIF_Select(JLINKARM_TIF_SWD)  returns 0x00 (0001ms, 0582ms total)
T2E2C 000:711 JLINK_SetSpeed(500) (0000ms, 0582ms total)
T2E2C 000:711 JLINK_GetId() >0x108 TIF>Found SWD-DP with ID 0x2BA01477 >0x0D TIF> >0x28 TIF> >0x0D TIF> >0x28 TIF> >0x0D TIF> >0x28 TIF> >0x0D TIF> >0x28 TIF> >0x0D TIF> >0x21 TIF> >0x0D TIF> >0x28 TIF> >0x0D TIF> >0x28 TIF> >0x0D TIF> >0x28 TIF> >0x0D TIF> >0x21 TIF> >0x0D TIF> >0x21 TIF> >0x0D TIF> >0x28 TIF> >0x0D TIF> >0x21 TIF> >0x0D TIF> >0x21 TIF> >0x0D TIF> >0x28 TIF> >0x0D TIF> >0x28 TIF> >0x0D TIF> >0x28 TIF> >0x0D TIF> >0x21 TIF> >0x0D TIF> >0x21 TIF> >0x0D TIF> >0x28 TIF> >0x0D TIF>
 >0x28 TIF> >0x0D TIF> >0x28 TIF> >0x0D TIF> >0x21 TIF> >0x0D TIF> >0x21 TIF> >0x0D TIF> >0x28 TIF> >0x0D TIF> >0x21 TIF> >0x0D TIF> >0x21 TIF> >0x0D TIF> >0x28 TIF> >0x0D TIF> >0x21 TIF> >0x0D TIF> >0x21 TIF> >0x108 TIF>Found SWD-DP with ID 0x2BA01477 >0x0D TIF> >0x28 TIF> >0x0D TIF> >0x28 TIF> >0x0D TIF> >0x28 TIF> >0x0D TIF> >0x28 TIF> >0x0D TIF> >0x21 TIF> >0x0D TIF> >0x28 TIF> >0x0D TIF> >0x28 TIF> >0x0D TIF> >0x21 TIF> >0x0D TIF> >0x21 TIF> >0x0D TIF> >0x21 TIF> >0x0D TIF> >0x28 TIF> >0x0D TIF>
 >0x28 TIF> >0x0D TIF> >0x28 TIF> >0x0D TIF> >0x21 TIF> >0x0D TIF> >0x21 TIF> >0x0D TIF> >0x28 TIF> >0x0D TIF> >0x21 TIF> >0x0D TIF> >0x21 TIF>Found Cortex-M4 r0p1, Little endian. -- CPU_ReadMem(4 bytes @ 0xE000EDF0) -- CPU_WriteMem(4 bytes @ 0xE000EDF0) -- CPU_ReadMem(4 bytes @ 0xE0002000)FPUnit: 6 code (BP) slots and 2 literal slots -- CPU_ReadMem(4 bytes @ 0xE000EDFC) -- CPU_WriteMem(4 bytes @ 0xE000EDFC) -- CPU_ReadMem(4 bytes @ 0xE0001000) -- CPU_WriteMem(4 bytes @ 0xE0001000)
 -- CPU_ReadMem(4 bytes @ 0xE000ED88) -- CPU_WriteMem(4 bytes @ 0xE000ED88) -- CPU_ReadMem(4 bytes @ 0xE000ED88) -- CPU_WriteMem(4 bytes @ 0xE000ED88)CoreSight components:ROMTbl 0 @ E00FF000 -- CPU_ReadMem(16 bytes @ 0xE00FF000) -- CPU_ReadMem(16 bytes @ 0xE000EFF0) -- CPU_ReadMem(16 bytes @ 0xE000EFE0)ROMTbl 0 [0]: FFF0F000, CID: B105E00D, PID: 000BB00C SCS -- CPU_ReadMem(16 bytes @ 0xE0001FF0) -- CPU_ReadMem(16 bytes @ 0xE0001FE0)ROMTbl 0 [1]: FFF02000, CID: B105E00D, PID: 003BB002 DWT
 -- CPU_ReadMem(16 bytes @ 0xE0002FF0) -- CPU_ReadMem(16 bytes @ 0xE0002FE0)ROMTbl 0 [2]: FFF03000, CID: B105E00D, PID: 002BB003 FPB -- CPU_ReadMem(16 bytes @ 0xE0000FF0) -- CPU_ReadMem(16 bytes @ 0xE0000FE0)ROMTbl 0 [3]: FFF01000, CID: B105E00D, PID: 003BB001 ITM -- CPU_ReadMem(16 bytes @ 0xE00FF010) -- CPU_ReadMem(16 bytes @ 0xE0040FF0) -- CPU_ReadMem(16 bytes @ 0xE0040FE0)ROMTbl 0 [4]: FFF41000, CID: B105900D, PID: 000BB9A1 TPIU -- CPU_ReadMem(16 bytes @ 0xE0041FF0)
 -- CPU_ReadMem(16 bytes @ 0xE0041FE0)ROMTbl 0 [5]: FFF42000, CID: B105900D, PID: 000BB925 ETM >0x0D TIF> >0x21 TIF>  returns 0x2BA01477 (0098ms, 0680ms total)
T2E2C 000:809 JLINK_GetDLLVersion()  returns 51205 (0000ms, 0680ms total)
T2E2C 000:809 JLINK_CORE_GetFound()  returns 0xE0000FF (0000ms, 0680ms total)
T2E2C 000:809 JLINK_GetDebugInfo(0x100) -- Value=0xE00FF000  returns 0x00 (0000ms, 0680ms total)
T2E2C 000:811 JLINK_GetDebugInfo(0x100) -- Value=0xE00FF000  returns 0x00 (0000ms, 0680ms total)
T2E2C 000:811 JLINK_GetDebugInfo(0x101) -- Value=0xE0041000  returns 0x00 (0000ms, 0680ms total)
T2E2C 000:811 JLINK_GetDebugInfo(0x102) -- Value=0x00000000  returns 0x00 (0000ms, 0680ms total)
T2E2C 000:811 JLINK_GetDebugInfo(0x103) -- Value=0xE0040000  returns 0x00 (0000ms, 0680ms total)
T2E2C 000:811 JLINK_GetDebugInfo(0x104) -- Value=0xE0000000  returns 0x00 (0000ms, 0680ms total)
T2E2C 000:811 JLINK_GetDebugInfo(0x105) -- Value=0xE0001000  returns 0x00 (0000ms, 0680ms total)
T2E2C 000:811 JLINK_GetDebugInfo(0x106) -- Value=0xE0002000  returns 0x00 (0000ms, 0680ms total)
T2E2C 000:811 JLINK_GetDebugInfo(0x107) -- Value=0xE000E000  returns 0x00 (0000ms, 0680ms total)
T2E2C 000:811 JLINK_GetDebugInfo(0x10C) -- Value=0xE000EDF0  returns 0x00 (0000ms, 0680ms total)
T2E2C 000:811 JLINK_ReadMemU32(0xE000EF40, 0x0001 Items, ...) -- CPU is running -- CPU_ReadMem(4 bytes @ 0xE000EF40) - Data: 21 00 11 10  returns 0x01 (0001ms, 0681ms total)
T2E2C 000:812 JLINK_ReadMemU32(0xE000EF44, 0x0001 Items, ...) -- CPU is running -- CPU_ReadMem(4 bytes @ 0xE000EF44) - Data: 11 00 00 11  returns 0x01 (0001ms, 0682ms total)
T2E2C 000:813 JLINK_ReadMemU32(0xE000ED00, 0x0001 Items, ...) -- CPU is running -- CPU_ReadMem(4 bytes @ 0xE000ED00) - Data: 41 C2 0F 41  returns 0x01 (0001ms, 0683ms total)
T2E2C 000:814 JLINK_SetResetType(JLINKARM_RESET_TYPE_NORMAL)  returns JLINKARM_RESET_TYPE_NORMAL (0000ms, 0683ms total)
T2E2C 000:814 JLINK_Reset() -- CPU is running -- CPU_WriteMem(4 bytes @ 0xE000EDF0) -- CPU is running -- CPU_WriteMem(4 bytes @ 0xE000EDFC) >0x35 TIF> -- CPU is running -- CPU_WriteMem(4 bytes @ 0xE000ED0C) -- CPU is running -- CPU_ReadMem(4 bytes @ 0xE000EDF0) -- CPU is running -- CPU_ReadMem(4 bytes @ 0xE000EDF0) -- CPU is running -- CPU_WriteMem(4 bytes @ 0xE000EDF0) -- CPU is running -- CPU_WriteMem(4 bytes @ 0xE000EDFC) -- CPU is running -- CPU_ReadMem(4 bytes @ 0xE000EDF0)
 -- CPU_WriteMem(4 bytes @ 0xE0002000) -- CPU_ReadMem(4 bytes @ 0xE000EDFC) -- CPU_ReadMem(4 bytes @ 0xE0001000) (0028ms, 0711ms total)
T2E2C 000:843 JLINK_Halt()  returns 0x00 (0000ms, 0711ms total)
T2E2C 000:843 JLINK_IsHalted()  returns TRUE (0000ms, 0711ms total)
T2E2C 000:843 JLINK_ReadMemU32(0xE000EDF0, 0x0001 Items, ...) -- CPU_ReadMem(4 bytes @ 0xE000EDF0) - Data: 03 00 03 00  returns 0x01 (0001ms, 0712ms total)
T2E2C 000:844 JLINK_WriteU32(0xE000EDF0, 0xA05F0003) -- CPU_WriteMem(4 bytes @ 0xE000EDF0)  returns 0x00 (0000ms, 0712ms total)
T2E2C 000:845 JLINK_WriteU32(0xE000EDFC, 0x01000000) -- CPU_WriteMem(4 bytes @ 0xE000EDFC)  returns 0x00 (0001ms, 0714ms total)
T2E2C 000:859 JLINK_GetHWStatus(...)  returns 0x00 (0000ms, 0714ms total)
T2E2C 000:866 JLINK_GetNumBPUnits(Type = 0xFFFFFF00)  returns 0x06 (0000ms, 0714ms total)
T2E2C 000:866 JLINK_GetNumBPUnits(Type = 0xF0)  returns 0x2000 (0000ms, 0714ms total)
T2E2C 000:866 JLINK_GetNumWPUnits()  returns 0x04 (0000ms, 0714ms total)
T2E2C 000:872 JLINK_GetSpeed()  returns 0x1F4 (0000ms, 0714ms total)
T2E2C 000:877 JLINK_ReadMemU32(0xE000E004, 0x0001 Items, ...) -- CPU_ReadMem(4 bytes @ 0xE000E004) - Data: 02 00 00 00  returns 0x01 (0001ms, 0715ms total)
T2E2C 000:878 JLINK_ReadMemU32(0xE000E004, 0x0001 Items, ...) -- CPU_ReadMem(4 bytes @ 0xE000E004) - Data: 02 00 00 00  returns 0x01 (0001ms, 0716ms total)
T2E2C 000:879 JLINK_WriteMem(0xE0001000, 0x001C Bytes, ...) - Data: 01 00 00 00 00 00 00 00 00 00 00 00 00 00 00 00 ... -- CPU_WriteMem(28 bytes @ 0xE0001000)  returns 0x1C (0002ms, 0718ms total)
T2E2C 000:881 JLINK_ReadMem (0xE0001000, 0x001C Bytes, ...) -- CPU_ReadMem(28 bytes @ 0xE0001000) - Data: 01 00 00 40 00 00 00 00 00 00 00 00 00 00 00 00 ...  returns 0x00 (0002ms, 0720ms total)
T2E2C 000:883 JLINK_Halt()  returns 0x00 (0000ms, 0720ms total)
T2E2C 000:883 JLINK_IsHalted()  returns TRUE (0000ms, 0720ms total)
T2E2C 000:905 JLINK_WriteMem(0x20000000, 0x0180 Bytes, ...) - Data: 00 BE 0A E0 0D 78 2D 06 68 40 08 24 40 00 00 D3 ... -- CPU_WriteMem(384 bytes @ 0x20000000)  returns 0x180 (0012ms, 0732ms total)
T2E2C 000:917 JLINK_WriteReg(R0, 0x08000000)  returns 0x00 (0000ms, 0732ms total)
T2E2C 000:917 JLINK_WriteReg(R1, 0x00B71B00)  returns 0x00 (0000ms, 0732ms total)
T2E2C 000:917 JLINK_WriteReg(R2, 0x00000001)  returns 0x00 (0000ms, 0732ms total)
T2E2C 000:917 JLINK_WriteReg(R3, 0x00000000)  returns 0x00 (0000ms, 0732ms total)
T2E2C 000:917 JLINK_WriteReg(R4, 0x00000000)  returns 0x00 (0000ms, 0732ms total)
T2E2C 000:917 JLINK_WriteReg(R5, 0x00000000)  returns 0x00 (0000ms, 0732ms total)
T2E2C 000:917 JLINK_WriteReg(R6, 0x00000000)  returns 0x00 (0000ms, 0732ms total)
T2E2C 000:917 JLINK_WriteReg(R7, 0x00000000)  returns 0x00 (0000ms, 0732ms total)
T2E2C 000:917 JLINK_WriteReg(R8, 0x00000000)  returns 0x00 (0000ms, 0732ms total)
T2E2C 000:917 JLINK_WriteReg(R9, 0x2000017C)  returns 0x00 (0000ms, 0732ms total)
T2E2C 000:917 JLINK_WriteReg(R10, 0x00000000)  returns 0x00 (0000ms, 0732ms total)
T2E2C 000:917 JLINK_WriteReg(R11, 0x00000000)  returns 0x00 (0000ms, 0732ms total)
T2E2C 000:917 JLINK_WriteReg(R12, 0x00000000)  returns 0x00 (0000ms, 0732ms total)
T2E2C 000:917 JLINK_WriteReg(R13 (SP), 0x20008000)  returns 0x00 (0000ms, 0732ms total)
T2E2C 000:917 JLINK_WriteReg(R14, 0x20000001)  returns 0x00 (0000ms, 0732ms total)
T2E2C 000:917 JLINK_WriteReg(R15 (PC), 0x20000054)  returns 0x00 (0000ms, 0732ms total)
T2E2C 000:917 JLINK_WriteReg(XPSR, 0x01000000)  returns 0x00 (0000ms, 0732ms total)
T2E2C 000:917 JLINK_WriteReg(MSP, 0x20008000)  returns 0x00 (0000ms, 0732ms total)
T2E2C 000:917 JLINK_WriteReg(PSP, 0x20008000)  returns 0x00 (0000ms, 0732ms total)
T2E2C 000:917 JLINK_WriteReg(CFBP, 0x00000000)  returns 0x00 (0000ms, 0732ms total)
T2E2C 000:917 JLINK_SetBPEx(Addr = 0x20000000, Type = 0xFFFFFFF2) -- CPU_ReadMem(2 bytes @ 0x20000000)  returns 0x00000001 (0001ms, 0733ms total)
T2E2C 000:918 JLINK_Go() -- CPU_WriteMem(2 bytes @ 0x20000000) -- CPU_ReadMem(4 bytes @ 0xE0001000) -- CPU_WriteMem(4 bytes @ 0xE0002008) -- CPU_WriteMem(4 bytes @ 0xE000200C) -- CPU_WriteMem(4 bytes @ 0xE0002010) -- CPU_WriteMem(4 bytes @ 0xE0002014) -- CPU_WriteMem(4 bytes @ 0xE0002018) -- CPU_WriteMem(4 bytes @ 0xE000201C) -- CPU_WriteMem(4 bytes @ 0xE0001004) (0012ms, 0745ms total)
T2E2C 000:930 JLINK_IsHalted() -- CPU_ReadMem(2 bytes @ 0x20000000)  returns TRUE (0009ms, 0754ms total)
T2E2C 000:939 JLINK_ReadReg(R15 (PC))  returns 0x20000000 (0000ms, 0745ms total)
T2E2C 000:939 JLINK_ClrBPEx(BPHandle = 0x00000001)  returns 0x00 (0000ms, 0745ms total)
T2E2C 000:939 JLINK_ReadReg(R0)  returns 0x00000000 (0000ms, 0745ms total)
T2E2C 000:940 JLINK_WriteReg(R0, 0x08000000)  returns 0x00 (0000ms, 0745ms total)
T2E2C 000:940 JLINK_WriteReg(R1, 0x00004000)  returns 0x00 (0000ms, 0745ms total)
T2E2C 000:940 JLINK_WriteReg(R2, 0x000000FF)  returns 0x00 (0000ms, 0745ms total)
T2E2C 000:940 JLINK_WriteReg(R3, 0x00000000)  returns 0x00 (0000ms, 0745ms total)
T2E2C 000:940 JLINK_WriteReg(R4, 0x00000000)  returns 0x00 (0000ms, 0745ms total)
T2E2C 000:940 JLINK_WriteReg(R5, 0x00000000)  returns 0x00 (0000ms, 0745ms total)
T2E2C 000:940 JLINK_WriteReg(R6, 0x00000000)  returns 0x00 (0000ms, 0745ms total)
T2E2C 000:940 JLINK_WriteReg(R7, 0x00000000)  returns 0x00 (0000ms, 0745ms total)
T2E2C 000:940 JLINK_WriteReg(R8, 0x00000000)  returns 0x00 (0000ms, 0745ms total)
T2E2C 000:940 JLINK_WriteReg(R9, 0x2000017C)  returns 0x00 (0000ms, 0745ms total)
T2E2C 000:940 JLINK_WriteReg(R10, 0x00000000)  returns 0x00 (0000ms, 0745ms total)
T2E2C 000:940 JLINK_WriteReg(R11, 0x00000000)  returns 0x00 (0000ms, 0745ms total)
T2E2C 000:940 JLINK_WriteReg(R12, 0x00000000)  returns 0x00 (0000ms, 0745ms total)
T2E2C 000:940 JLINK_WriteReg(R13 (SP), 0x20008000)  returns 0x00 (0000ms, 0745ms total)
T2E2C 000:940 JLINK_WriteReg(R14, 0x20000001)  returns 0x00 (0000ms, 0745ms total)
T2E2C 000:940 JLINK_WriteReg(R15 (PC), 0x20000020)  returns 0x00 (0000ms, 0745ms total)
T2E2C 000:940 JLINK_WriteReg(XPSR, 0x01000000)  returns 0x00 (0000ms, 0745ms total)
T2E2C 000:940 JLINK_WriteReg(MSP, 0x20008000)  returns 0x00 (0000ms, 0745ms total)
T2E2C 000:940 JLINK_WriteReg(PSP, 0x20008000)  returns 0x00 (0000ms, 0745ms total)
T2E2C 000:940 JLINK_WriteReg(CFBP, 0x00000000)  returns 0x00 (0000ms, 0745ms total)
T2E2C 000:940 JLINK_SetBPEx(Addr = 0x20000000, Type = 0xFFFFFFF2)  returns 0x00000002 (0000ms, 0745ms total)
T2E2C 000:940 JLINK_Go() -- CPU_ReadMem(4 bytes @ 0xE0001000) (0005ms, 0750ms total)
T2E2C 000:945 JLINK_IsHalted()  returns FALSE (0001ms, 0751ms total)
T2E2C 000:987 JLINK_IsHalted() -- CPU_ReadMem(2 bytes @ 0x20000000)  returns TRUE (0009ms, 0759ms total)
T2E2C 000:996 JLINK_ReadReg(R15 (PC))  returns 0x20000000 (0000ms, 0750ms total)
T2E2C 000:996 JLINK_ClrBPEx(BPHandle = 0x00000002)  returns 0x00 (0000ms, 0750ms total)
T2E2C 000:996 JLINK_ReadReg(R0)  returns 0x00000000 (0000ms, 0750ms total)
T2E2C 000:997 JLINK_WriteReg(R0, 0x08004000)  returns 0x00 (0000ms, 0750ms total)
T2E2C 000:997 JLINK_WriteReg(R1, 0x00004000)  returns 0x00 (0000ms, 0750ms total)
T2E2C 000:997 JLINK_WriteReg(R2, 0x000000FF)  returns 0x00 (0000ms, 0750ms total)
T2E2C 000:997 JLINK_WriteReg(R3, 0x00000000)  returns 0x00 (0000ms, 0750ms total)
T2E2C 000:997 JLINK_WriteReg(R4, 0x00000000)  returns 0x00 (0000ms, 0750ms total)
T2E2C 000:997 JLINK_WriteReg(R5, 0x00000000)  returns 0x00 (0000ms, 0750ms total)
T2E2C 000:997 JLINK_WriteReg(R6, 0x00000000)  returns 0x00 (0000ms, 0750ms total)
T2E2C 000:997 JLINK_WriteReg(R7, 0x00000000)  returns 0x00 (0000ms, 0750ms total)
T2E2C 000:997 JLINK_WriteReg(R8, 0x00000000)  returns 0x00 (0000ms, 0750ms total)
T2E2C 000:997 JLINK_WriteReg(R9, 0x2000017C)  returns 0x00 (0000ms, 0750ms total)
T2E2C 000:997 JLINK_WriteReg(R10, 0x00000000)  returns 0x00 (0000ms, 0750ms total)
T2E2C 000:997 JLINK_WriteReg(R11, 0x00000000)  returns 0x00 (0000ms, 0750ms total)
T2E2C 000:997 JLINK_WriteReg(R12, 0x00000000)  returns 0x00 (0000ms, 0750ms total)
T2E2C 000:997 JLINK_WriteReg(R13 (SP), 0x20008000)  returns 0x00 (0000ms, 0750ms total)
T2E2C 000:997 JLINK_WriteReg(R14, 0x20000001)  returns 0x00 (0000ms, 0750ms total)
T2E2C 000:997 JLINK_WriteReg(R15 (PC), 0x20000020)  returns 0x00 (0000ms, 0750ms total)
T2E2C 000:997 JLINK_WriteReg(XPSR, 0x01000000)  returns 0x00 (0000ms, 0750ms total)
T2E2C 000:997 JLINK_WriteReg(MSP, 0x20008000)  returns 0x00 (0000ms, 0750ms total)
T2E2C 000:997 JLINK_WriteReg(PSP, 0x20008000)  returns 0x00 (0000ms, 0750ms total)
T2E2C 000:997 JLINK_WriteReg(CFBP, 0x00000000)  returns 0x00 (0000ms, 0750ms total)
T2E2C 000:997 JLINK_SetBPEx(Addr = 0x20000000, Type = 0xFFFFFFF2)  returns 0x00000003 (0000ms, 0750ms total)
T2E2C 000:997 JLINK_Go() -- CPU_ReadMem(4 bytes @ 0xE0001000) (0005ms, 0755ms total)
T2E2C 001:002 JLINK_IsHalted()  returns FALSE (0001ms, 0756ms total)
T2E2C 001:011 JLINK_IsHalted()  returns FALSE (0001ms, 0756ms total)
T2E2C 001:014 JLINK_IsHalted()  returns FALSE (0001ms, 0756ms total)
T2E2C 001:018 JLINK_IsHalted() -- CPU_ReadMem(2 bytes @ 0x20000000)  returns TRUE (0009ms, 0764ms total)
T2E2C 001:027 JLINK_ReadReg(R15 (PC))  returns 0x20000000 (0000ms, 0755ms total)
T2E2C 001:027 JLINK_ClrBPEx(BPHandle = 0x00000003)  returns 0x00 (0000ms, 0755ms total)
T2E2C 001:027 JLINK_ReadReg(R0)  returns 0x00000000 (0000ms, 0755ms total)
T2E2C 001:028 JLINK_WriteReg(R0, 0x08008000)  returns 0x00 (0000ms, 0755ms total)
T2E2C 001:028 JLINK_WriteReg(R1, 0x00004000)  returns 0x00 (0000ms, 0755ms total)
T2E2C 001:028 JLINK_WriteReg(R2, 0x000000FF)  returns 0x00 (0000ms, 0755ms total)
T2E2C 001:028 JLINK_WriteReg(R3, 0x00000000)  returns 0x00 (0000ms, 0755ms total)
T2E2C 001:028 JLINK_WriteReg(R4, 0x00000000)  returns 0x00 (0000ms, 0755ms total)
T2E2C 001:028 JLINK_WriteReg(R5, 0x00000000)  returns 0x00 (0001ms, 0756ms total)
T2E2C 001:029 JLINK_WriteReg(R6, 0x00000000)  returns 0x00 (0000ms, 0756ms total)
T2E2C 001:029 JLINK_WriteReg(R7, 0x00000000)  returns 0x00 (0000ms, 0756ms total)
T2E2C 001:029 JLINK_WriteReg(R8, 0x00000000)  returns 0x00 (0000ms, 0756ms total)
T2E2C 001:029 JLINK_WriteReg(R9, 0x2000017C)  returns 0x00 (0000ms, 0756ms total)
T2E2C 001:029 JLINK_WriteReg(R10, 0x00000000)  returns 0x00 (0000ms, 0756ms total)
T2E2C 001:029 JLINK_WriteReg(R11, 0x00000000)  returns 0x00 (0000ms, 0756ms total)
T2E2C 001:029 JLINK_WriteReg(R12, 0x00000000)  returns 0x00 (0000ms, 0756ms total)
T2E2C 001:029 JLINK_WriteReg(R13 (SP), 0x20008000)  returns 0x00 (0000ms, 0756ms total)
T2E2C 001:029 JLINK_WriteReg(R14, 0x20000001)  returns 0x00 (0000ms, 0756ms total)
T2E2C 001:029 JLINK_WriteReg(R15 (PC), 0x20000020)  returns 0x00 (0000ms, 0756ms total)
T2E2C 001:029 JLINK_WriteReg(XPSR, 0x01000000)  returns 0x00 (0000ms, 0756ms total)
T2E2C 001:029 JLINK_WriteReg(MSP, 0x20008000)  returns 0x00 (0000ms, 0756ms total)
T2E2C 001:029 JLINK_WriteReg(PSP, 0x20008000)  returns 0x00 (0000ms, 0756ms total)
T2E2C 001:029 JLINK_WriteReg(CFBP, 0x00000000)  returns 0x00 (0000ms, 0756ms total)
T2E2C 001:029 JLINK_SetBPEx(Addr = 0x20000000, Type = 0xFFFFFFF2)  returns 0x00000004 (0000ms, 0756ms total)
T2E2C 001:029 JLINK_Go() -- CPU_ReadMem(4 bytes @ 0xE0001000) (0005ms, 0761ms total)
T2E2C 001:034 JLINK_IsHalted()  returns FALSE (0001ms, 0762ms total)
T2E2C 001:037 JLINK_IsHalted()  returns FALSE (0000ms, 0761ms total)
T2E2C 001:039 JLINK_IsHalted()  returns FALSE (0000ms, 0761ms total)
T2E2C 001:041 JLINK_IsHalted()  returns FALSE (0000ms, 0761ms total)
T2E2C 001:043 JLINK_IsHalted()  returns FALSE (0000ms, 0761ms total)
T2E2C 001:045 JLINK_IsHalted()  returns FALSE (0000ms, 0761ms total)
T2E2C 001:047 JLINK_IsHalted()  returns FALSE (0000ms, 0761ms total)
T2E2C 001:049 JLINK_IsHalted() -- CPU_ReadMem(2 bytes @ 0x20000000)  returns TRUE (0009ms, 0770ms total)
T2E2C 001:058 JLINK_ReadReg(R15 (PC))  returns 0x20000000 (0000ms, 0761ms total)
T2E2C 001:058 JLINK_ClrBPEx(BPHandle = 0x00000004)  returns 0x00 (0000ms, 0761ms total)
T2E2C 001:058 JLINK_ReadReg(R0)  returns 0x00000000 (0000ms, 0761ms total)
T2E2C 001:058 JLINK_WriteReg(R0, 0x0800C000)  returns 0x00 (0000ms, 0761ms total)
T2E2C 001:058 JLINK_WriteReg(R1, 0x00004000)  returns 0x00 (0000ms, 0761ms total)
T2E2C 001:058 JLINK_WriteReg(R2, 0x000000FF)  returns 0x00 (0000ms, 0761ms total)
T2E2C 001:058 JLINK_WriteReg(R3, 0x00000000)  returns 0x00 (0000ms, 0761ms total)
T2E2C 001:058 JLINK_WriteReg(R4, 0x00000000)  returns 0x00 (0000ms, 0761ms total)
T2E2C 001:058 JLINK_WriteReg(R5, 0x00000000)  returns 0x00 (0000ms, 0761ms total)
T2E2C 001:058 JLINK_WriteReg(R6, 0x00000000)  returns 0x00 (0000ms, 0761ms total)
T2E2C 001:058 JLINK_WriteReg(R7, 0x00000000)  returns 0x00 (0000ms, 0761ms total)
T2E2C 001:058 JLINK_WriteReg(R8, 0x00000000)  returns 0x00 (0000ms, 0761ms total)
T2E2C 001:059 JLINK_WriteReg(R9, 0x2000017C)  returns 0x00 (0000ms, 0762ms total)
T2E2C 001:059 JLINK_WriteReg(R10, 0x00000000)  returns 0x00 (0000ms, 0762ms total)
T2E2C 001:059 JLINK_WriteReg(R11, 0x00000000)  returns 0x00 (0000ms, 0762ms total)
T2E2C 001:059 JLINK_WriteReg(R12, 0x00000000)  returns 0x00 (0000ms, 0762ms total)
T2E2C 001:059 JLINK_WriteReg(R13 (SP), 0x20008000)  returns 0x00 (0000ms, 0762ms total)
T2E2C 001:059 JLINK_WriteReg(R14, 0x20000001)  returns 0x00 (0000ms, 0762ms total)
T2E2C 001:059 JLINK_WriteReg(R15 (PC), 0x20000020)  returns 0x00 (0000ms, 0762ms total)
T2E2C 001:059 JLINK_WriteReg(XPSR, 0x01000000)  returns 0x00 (0000ms, 0762ms total)
T2E2C 001:059 JLINK_WriteReg(MSP, 0x20008000)  returns 0x00 (0000ms, 0762ms total)
T2E2C 001:059 JLINK_WriteReg(PSP, 0x20008000)  returns 0x00 (0000ms, 0762ms total)
T2E2C 001:059 JLINK_WriteReg(CFBP, 0x00000000)  returns 0x00 (0000ms, 0762ms total)
T2E2C 001:059 JLINK_SetBPEx(Addr = 0x20000000, Type = 0xFFFFFFF2)  returns 0x00000005 (0000ms, 0762ms total)
T2E2C 001:059 JLINK_Go() -- CPU_ReadMem(4 bytes @ 0xE0001000) (0004ms, 0766ms total)
T2E2C 001:063 JLINK_IsHalted()  returns FALSE (0001ms, 0767ms total)
T2E2C 001:067 JLINK_IsHalted()  returns FALSE (0000ms, 0766ms total)
T2E2C 001:069 JLINK_IsHalted()  returns FALSE (0000ms, 0766ms total)
T2E2C 001:072 JLINK_IsHalted()  returns FALSE (0000ms, 0766ms total)
T2E2C 001:074 JLINK_IsHalted()  returns FALSE (0000ms, 0766ms total)
T2E2C 001:077 JLINK_IsHalted()  returns FALSE (0000ms, 0766ms total)
T2E2C 001:081 JLINK_IsHalted() -- CPU_ReadMem(2 bytes @ 0x20000000)  returns TRUE (0009ms, 0775ms total)
T2E2C 001:090 JLINK_ReadReg(R15 (PC))  returns 0x20000000 (0000ms, 0766ms total)
T2E2C 001:090 JLINK_ClrBPEx(BPHandle = 0x00000005)  returns 0x00 (0000ms, 0766ms total)
T2E2C 001:090 JLINK_ReadReg(R0)  returns 0x00000000 (0000ms, 0766ms total)
T2E2C 001:090 JLINK_WriteReg(R0, 0x08010000)  returns 0x00 (0000ms, 0766ms total)
T2E2C 001:090 JLINK_WriteReg(R1, 0x00010000)  returns 0x00 (0000ms, 0766ms total)
T2E2C 001:090 JLINK_WriteReg(R2, 0x000000FF)  returns 0x00 (0000ms, 0766ms total)
T2E2C 001:090 JLINK_WriteReg(R3, 0x00000000)  returns 0x00 (0000ms, 0766ms total)
T2E2C 001:090 JLINK_WriteReg(R4, 0x00000000)  returns 0x00 (0000ms, 0766ms total)
T2E2C 001:090 JLINK_WriteReg(R5, 0x00000000)  returns 0x00 (0001ms, 0767ms total)
T2E2C 001:091 JLINK_WriteReg(R6, 0x00000000)  returns 0x00 (0000ms, 0767ms total)
T2E2C 001:091 JLINK_WriteReg(R7, 0x00000000)  returns 0x00 (0000ms, 0767ms total)
T2E2C 001:091 JLINK_WriteReg(R8, 0x00000000)  returns 0x00 (0000ms, 0767ms total)
T2E2C 001:091 JLINK_WriteReg(R9, 0x2000017C)  returns 0x00 (0000ms, 0767ms total)
T2E2C 001:091 JLINK_WriteReg(R10, 0x00000000)  returns 0x00 (0000ms, 0767ms total)
T2E2C 001:091 JLINK_WriteReg(R11, 0x00000000)  returns 0x00 (0000ms, 0767ms total)
T2E2C 001:091 JLINK_WriteReg(R12, 0x00000000)  returns 0x00 (0000ms, 0767ms total)
T2E2C 001:091 JLINK_WriteReg(R13 (SP), 0x20008000)  returns 0x00 (0000ms, 0767ms total)
T2E2C 001:091 JLINK_WriteReg(R14, 0x20000001)  returns 0x00 (0000ms, 0767ms total)
T2E2C 001:091 JLINK_WriteReg(R15 (PC), 0x20000020)  returns 0x00 (0000ms, 0767ms total)
T2E2C 001:091 JLINK_WriteReg(XPSR, 0x01000000)  returns 0x00 (0000ms, 0767ms total)
T2E2C 001:091 JLINK_WriteReg(MSP, 0x20008000)  returns 0x00 (0000ms, 0767ms total)
T2E2C 001:091 JLINK_WriteReg(PSP, 0x20008000)  returns 0x00 (0000ms, 0767ms total)
T2E2C 001:091 JLINK_WriteReg(CFBP, 0x00000000)  returns 0x00 (0000ms, 0767ms total)
T2E2C 001:091 JLINK_SetBPEx(Addr = 0x20000000, Type = 0xFFFFFFF2)  returns 0x00000006 (0000ms, 0767ms total)
T2E2C 001:091 JLINK_Go() -- CPU_ReadMem(4 bytes @ 0xE0001000) (0004ms, 0771ms total)
T2E2C 001:095 JLINK_IsHalted()  returns FALSE (0001ms, 0772ms total)
T2E2C 001:100 JLINK_IsHalted()  returns FALSE (0001ms, 0772ms total)
T2E2C 001:103 JLINK_IsHalted()  returns FALSE (0000ms, 0771ms total)
T2E2C 001:107 JLINK_IsHalted()  returns FALSE (0000ms, 0771ms total)
T2E2C 001:109 JLINK_IsHalted()  returns FALSE (0001ms, 0772ms total)
T2E2C 001:112 JLINK_IsHalted()  returns FALSE (0000ms, 0771ms total)
T2E2C 001:114 JLINK_IsHalted()  returns FALSE (0000ms, 0771ms total)
T2E2C 001:116 JLINK_IsHalted()  returns FALSE (0000ms, 0771ms total)
T2E2C 001:119 JLINK_IsHalted()  returns FALSE (0000ms, 0771ms total)
T2E2C 001:122 JLINK_IsHalted()  returns FALSE (0000ms, 0771ms total)
T2E2C 001:124 JLINK_IsHalted()  returns FALSE (0000ms, 0771ms total)
T2E2C 001:126 JLINK_IsHalted()  returns FALSE (0000ms, 0771ms total)
T2E2C 001:129 JLINK_IsHalted()  returns FALSE (0000ms, 0771ms total)
T2E2C 001:131 JLINK_IsHalted()  returns FALSE (0000ms, 0771ms total)
T2E2C 001:134 JLINK_IsHalted()  returns FALSE (0000ms, 0771ms total)
T2E2C 001:136 JLINK_IsHalted()  returns FALSE (0000ms, 0771ms total)
T2E2C 001:138 JLINK_IsHalted()  returns FALSE (0000ms, 0771ms total)
T2E2C 001:140 JLINK_IsHalted()  returns FALSE (0000ms, 0771ms total)
T2E2C 001:142 JLINK_IsHalted()  returns FALSE (0001ms, 0772ms total)
T2E2C 001:145 JLINK_IsHalted()  returns FALSE (0001ms, 0772ms total)
T2E2C 001:148 JLINK_IsHalted()  returns FALSE (0000ms, 0771ms total)
T2E2C 001:150 JLINK_IsHalted()  returns FALSE (0000ms, 0771ms total)
T2E2C 001:152 JLINK_IsHalted()  returns FALSE (0000ms, 0771ms total)
T2E2C 001:154 JLINK_IsHalted() -- CPU_ReadMem(2 bytes @ 0x20000000)  returns TRUE (0009ms, 0780ms total)
T2E2C 001:163 JLINK_ReadReg(R15 (PC))  returns 0x20000000 (0000ms, 0771ms total)
T2E2C 001:163 JLINK_ClrBPEx(BPHandle = 0x00000006)  returns 0x00 (0000ms, 0771ms total)
T2E2C 001:163 JLINK_ReadReg(R0)  returns 0x00000000 (0000ms, 0771ms total)
T2E2C 001:163 JLINK_WriteReg(R0, 0x00000001)  returns 0x00 (0000ms, 0771ms total)
T2E2C 001:163 JLINK_WriteReg(R1, 0x00010000)  returns 0x00 (0000ms, 0771ms total)
T2E2C 001:163 JLINK_WriteReg(R2, 0x000000FF)  returns 0x00 (0000ms, 0771ms total)
T2E2C 001:163 JLINK_WriteReg(R3, 0x00000000)  returns 0x00 (0000ms, 0771ms total)
T2E2C 001:163 JLINK_WriteReg(R4, 0x00000000)  returns 0x00 (0000ms, 0771ms total)
T2E2C 001:163 JLINK_WriteReg(R5, 0x00000000)  returns 0x00 (0000ms, 0771ms total)
T2E2C 001:163 JLINK_WriteReg(R6, 0x00000000)  returns 0x00 (0000ms, 0771ms total)
T2E2C 001:163 JLINK_WriteReg(R7, 0x00000000)  returns 0x00 (0000ms, 0771ms total)
T2E2C 001:163 JLINK_WriteReg(R8, 0x00000000)  returns 0x00 (0000ms, 0771ms total)
T2E2C 001:163 JLINK_WriteReg(R9, 0x2000017C)  returns 0x00 (0000ms, 0771ms total)
T2E2C 001:163 JLINK_WriteReg(R10, 0x00000000)  returns 0x00 (0000ms, 0771ms total)
T2E2C 001:163 JLINK_WriteReg(R11, 0x00000000)  returns 0x00 (0000ms, 0771ms total)
T2E2C 001:163 JLINK_WriteReg(R12, 0x00000000)  returns 0x00 (0000ms, 0771ms total)
T2E2C 001:163 JLINK_WriteReg(R13 (SP), 0x20008000)  returns 0x00 (0000ms, 0771ms total)
T2E2C 001:163 JLINK_WriteReg(R14, 0x20000001)  returns 0x00 (0000ms, 0771ms total)
T2E2C 001:163 JLINK_WriteReg(R15 (PC), 0x20000082)  returns 0x00 (0000ms, 0771ms total)
T2E2C 001:163 JLINK_WriteReg(XPSR, 0x01000000)  returns 0x00 (0000ms, 0771ms total)
T2E2C 001:163 JLINK_WriteReg(MSP, 0x20008000)  returns 0x00 (0000ms, 0771ms total)
T2E2C 001:163 JLINK_WriteReg(PSP, 0x20008000)  returns 0x00 (0000ms, 0771ms total)
T2E2C 001:163 JLINK_WriteReg(CFBP, 0x00000000)  returns 0x00 (0000ms, 0771ms total)
T2E2C 001:163 JLINK_SetBPEx(Addr = 0x20000000, Type = 0xFFFFFFF2)  returns 0x00000007 (0000ms, 0771ms total)
T2E2C 001:163 JLINK_Go() -- CPU_ReadMem(4 bytes @ 0xE0001000) (0005ms, 0776ms total)
T2E2C 001:168 JLINK_IsHalted() -- CPU_ReadMem(2 bytes @ 0x20000000)  returns TRUE (0009ms, 0785ms total)
T2E2C 001:177 JLINK_ReadReg(R15 (PC))  returns 0x20000000 (0000ms, 0776ms total)
T2E2C 001:177 JLINK_ClrBPEx(BPHandle = 0x00000007)  returns 0x00 (0000ms, 0776ms total)
T2E2C 001:177 JLINK_ReadReg(R0)  returns 0x00000000 (0000ms, 0776ms total)
T2E2C 001:233 JLINK_WriteMem(0x20000000, 0x0180 Bytes, ...) - Data: 00 BE 0A E0 0D 78 2D 06 68 40 08 24 40 00 00 D3 ... -- CPU_WriteMem(384 bytes @ 0x20000000)  returns 0x180 (0011ms, 0787ms total)
T2E2C 001:244 JLINK_WriteReg(R0, 0x08000000)  returns 0x00 (0000ms, 0787ms total)
T2E2C 001:244 JLINK_WriteReg(R1, 0x00B71B00)  returns 0x00 (0000ms, 0787ms total)
T2E2C 001:244 JLINK_WriteReg(R2, 0x00000002)  returns 0x00 (0000ms, 0787ms total)
T2E2C 001:244 JLINK_WriteReg(R3, 0x00000000)  returns 0x00 (0000ms, 0787ms total)
T2E2C 001:244 JLINK_WriteReg(R4, 0x00000000)  returns 0x00 (0000ms, 0787ms total)
T2E2C 001:244 JLINK_WriteReg(R5, 0x00000000)  returns 0x00 (0000ms, 0787ms total)
T2E2C 001:244 JLINK_WriteReg(R6, 0x00000000)  returns 0x00 (0000ms, 0787ms total)
T2E2C 001:244 JLINK_WriteReg(R7, 0x00000000)  returns 0x00 (0000ms, 0787ms total)
T2E2C 001:244 JLINK_WriteReg(R8, 0x00000000)  returns 0x00 (0000ms, 0787ms total)
T2E2C 001:244 JLINK_WriteReg(R9, 0x2000017C)  returns 0x00 (0000ms, 0787ms total)
T2E2C 001:244 JLINK_WriteReg(R10, 0x00000000)  returns 0x00 (0000ms, 0787ms total)
T2E2C 001:244 JLINK_WriteReg(R11, 0x00000000)  returns 0x00 (0000ms, 0787ms total)
T2E2C 001:244 JLINK_WriteReg(R12, 0x00000000)  returns 0x00 (0000ms, 0787ms total)
T2E2C 001:244 JLINK_WriteReg(R13 (SP), 0x20008000)  returns 0x00 (0000ms, 0787ms total)
T2E2C 001:244 JLINK_WriteReg(R14, 0x20000001)  returns 0x00 (0000ms, 0787ms total)
T2E2C 001:244 JLINK_WriteReg(R15 (PC), 0x20000054)  returns 0x00 (0000ms, 0787ms total)
T2E2C 001:244 JLINK_WriteReg(XPSR, 0x01000000)  returns 0x00 (0000ms, 0787ms total)
T2E2C 001:244 JLINK_WriteReg(MSP, 0x20008000)  returns 0x00 (0000ms, 0787ms total)
T2E2C 001:244 JLINK_WriteReg(PSP, 0x20008000)  returns 0x00 (0000ms, 0787ms total)
T2E2C 001:244 JLINK_WriteReg(CFBP, 0x00000000)  returns 0x00 (0000ms, 0787ms total)
T2E2C 001:244 JLINK_SetBPEx(Addr = 0x20000000, Type = 0xFFFFFFF2) -- CPU_ReadMem(2 bytes @ 0x20000000)  returns 0x00000008 (0002ms, 0789ms total)
T2E2C 001:246 JLINK_Go() -- CPU_WriteMem(2 bytes @ 0x20000000) -- CPU_ReadMem(4 bytes @ 0xE0001000) (0005ms, 0794ms total)
T2E2C 001:251 JLINK_IsHalted() -- CPU_ReadMem(2 bytes @ 0x20000000)  returns TRUE (0009ms, 0803ms total)
T2E2C 001:260 JLINK_ReadReg(R15 (PC))  returns 0x20000000 (0000ms, 0794ms total)
T2E2C 001:260 JLINK_ClrBPEx(BPHandle = 0x00000008)  returns 0x00 (0000ms, 0794ms total)
T2E2C 001:260 JLINK_ReadReg(R0)  returns 0x00000000 (0000ms, 0794ms total)
T2E2C 001:261 JLINK_WriteMem(0x20000180, 0x0400 Bytes, ...) - Data: 38 43 00 20 11 1F 01 08 B5 01 00 08 1B 1F 01 08 ... -- CPU_WriteMem(1024 bytes @ 0x20000180)  returns 0x400 (0027ms, 0821ms total)
T2E2C 001:288 JLINK_WriteReg(R0, 0x08000000)  returns 0x00 (0000ms, 0821ms total)
T2E2C 001:288 JLINK_WriteReg(R1, 0x00000400)  returns 0x00 (0000ms, 0821ms total)
T2E2C 001:288 JLINK_WriteReg(R2, 0x20000180)  returns 0x00 (0000ms, 0821ms total)
T2E2C 001:288 JLINK_WriteReg(R3, 0x00000000)  returns 0x00 (0000ms, 0821ms total)
T2E2C 001:288 JLINK_WriteReg(R4, 0x00000000)  returns 0x00 (0000ms, 0821ms total)
T2E2C 001:288 JLINK_WriteReg(R5, 0x00000000)  returns 0x00 (0000ms, 0821ms total)
T2E2C 001:288 JLINK_WriteReg(R6, 0x00000000)  returns 0x00 (0000ms, 0821ms total)
T2E2C 001:288 JLINK_WriteReg(R7, 0x00000000)  returns 0x00 (0000ms, 0821ms total)
T2E2C 001:288 JLINK_WriteReg(R8, 0x00000000)  returns 0x00 (0001ms, 0822ms total)
T2E2C 001:289 JLINK_WriteReg(R9, 0x2000017C)  returns 0x00 (0000ms, 0822ms total)
T2E2C 001:289 JLINK_WriteReg(R10, 0x00000000)  returns 0x00 (0000ms, 0822ms total)
T2E2C 001:289 JLINK_WriteReg(R11, 0x00000000)  returns 0x00 (0000ms, 0822ms total)
T2E2C 001:289 JLINK_WriteReg(R12, 0x00000000)  returns 0x00 (0000ms, 0822ms total)
T2E2C 001:289 JLINK_WriteReg(R13 (SP), 0x20008000)  returns 0x00 (0000ms, 0822ms total)
T2E2C 001:289 JLINK_WriteReg(R14, 0x20000001)  returns 0x00 (0000ms, 0822ms total)
T2E2C 001:289 JLINK_WriteReg(R15 (PC), 0x20000108)  returns 0x00 (0000ms, 0822ms total)
T2E2C 001:289 JLINK_WriteReg(XPSR, 0x01000000)  returns 0x00 (0000ms, 0822ms total)
T2E2C 001:289 JLINK_WriteReg(MSP, 0x20008000)  returns 0x00 (0000ms, 0822ms total)
T2E2C 001:289 JLINK_WriteReg(PSP, 0x20008000)  returns 0x00 (0000ms, 0822ms total)
T2E2C 001:289 JLINK_WriteReg(CFBP, 0x00000000)  returns 0x00 (0000ms, 0822ms total)
T2E2C 001:289 JLINK_SetBPEx(Addr = 0x20000000, Type = 0xFFFFFFF2)  returns 0x00000009 (0000ms, 0822ms total)
T2E2C 001:289 JLINK_Go() -- CPU_ReadMem(4 bytes @ 0xE0001000) (0004ms, 0826ms total)
T2E2C 001:293 JLINK_IsHalted()  returns FALSE (0001ms, 0827ms total)
T2E2C 001:300 JLINK_IsHalted() -- CPU_ReadMem(2 bytes @ 0x20000000)  returns TRUE (0009ms, 0835ms total)
T2E2C 001:309 JLINK_ReadReg(R15 (PC))  returns 0x20000000 (0000ms, 0826ms total)
T2E2C 001:309 JLINK_ClrBPEx(BPHandle = 0x00000009)  returns 0x00 (0000ms, 0826ms total)
T2E2C 001:309 JLINK_ReadReg(R0)  returns 0x00000000 (0000ms, 0826ms total)
T2E2C 001:310 JLINK_WriteMem(0x20000180, 0x0400 Bytes, ...) - Data: FF F7 C4 FF 0B 48 B0 F9 0A 00 14 28 04 DB 00 20 ... -- CPU_WriteMem(1024 bytes @ 0x20000180)  returns 0x400 (0027ms, 0853ms total)
T2E2C 001:337 JLINK_WriteReg(R0, 0x08000400)  returns 0x00 (0000ms, 0853ms total)
T2E2C 001:337 JLINK_WriteReg(R1, 0x00000400)  returns 0x00 (0000ms, 0853ms total)
T2E2C 001:337 JLINK_WriteReg(R2, 0x20000180)  returns 0x00 (0000ms, 0853ms total)
T2E2C 001:337 JLINK_WriteReg(R3, 0x00000000)  returns 0x00 (0000ms, 0853ms total)
T2E2C 001:337 JLINK_WriteReg(R4, 0x00000000)  returns 0x00 (0000ms, 0853ms total)
T2E2C 001:337 JLINK_WriteReg(R5, 0x00000000)  returns 0x00 (0000ms, 0853ms total)
T2E2C 001:337 JLINK_WriteReg(R6, 0x00000000)  returns 0x00 (0000ms, 0853ms total)
T2E2C 001:337 JLINK_WriteReg(R7, 0x00000000)  returns 0x00 (0000ms, 0853ms total)
T2E2C 001:337 JLINK_WriteReg(R8, 0x00000000)  returns 0x00 (0001ms, 0854ms total)
T2E2C 001:338 JLINK_WriteReg(R9, 0x2000017C)  returns 0x00 (0000ms, 0854ms total)
T2E2C 001:338 JLINK_WriteReg(R10, 0x00000000)  returns 0x00 (0000ms, 0854ms total)
T2E2C 001:338 JLINK_WriteReg(R11, 0x00000000)  returns 0x00 (0000ms, 0854ms total)
T2E2C 001:338 JLINK_WriteReg(R12, 0x00000000)  returns 0x00 (0000ms, 0854ms total)
T2E2C 001:338 JLINK_WriteReg(R13 (SP), 0x20008000)  returns 0x00 (0000ms, 0854ms total)
T2E2C 001:338 JLINK_WriteReg(R14, 0x20000001)  returns 0x00 (0000ms, 0854ms total)
T2E2C 001:338 JLINK_WriteReg(R15 (PC), 0x20000108)  returns 0x00 (0000ms, 0854ms total)
T2E2C 001:338 JLINK_WriteReg(XPSR, 0x01000000)  returns 0x00 (0000ms, 0854ms total)
T2E2C 001:338 JLINK_WriteReg(MSP, 0x20008000)  returns 0x00 (0000ms, 0854ms total)
T2E2C 001:338 JLINK_WriteReg(PSP, 0x20008000)  returns 0x00 (0000ms, 0854ms total)
T2E2C 001:338 JLINK_WriteReg(CFBP, 0x00000000)  returns 0x00 (0000ms, 0854ms total)
T2E2C 001:338 JLINK_SetBPEx(Addr = 0x20000000, Type = 0xFFFFFFF2)  returns 0x0000000A (0000ms, 0854ms total)
T2E2C 001:338 JLINK_Go() -- CPU_ReadMem(4 bytes @ 0xE0001000) (0004ms, 0858ms total)
T2E2C 001:342 JLINK_IsHalted()  returns FALSE (0001ms, 0859ms total)
T2E2C 001:346 JLINK_IsHalted()  returns FALSE (0000ms, 0858ms total)
T2E2C 001:348 JLINK_IsHalted() -- CPU_ReadMem(2 bytes @ 0x20000000)  returns TRUE (0010ms, 0868ms total)
T2E2C 001:358 JLINK_ReadReg(R15 (PC))  returns 0x20000000 (0000ms, 0858ms total)
T2E2C 001:358 JLINK_ClrBPEx(BPHandle = 0x0000000A)  returns 0x00 (0000ms, 0858ms total)
T2E2C 001:358 JLINK_ReadReg(R0)  returns 0x00000000 (0000ms, 0858ms total)
T2E2C 001:358 JLINK_WriteMem(0x20000180, 0x0400 Bytes, ...) - Data: 02 0A 9F ED 4C 0A 80 ED 0A 0A 9F ED 4B 0A 80 ED ... -- CPU_WriteMem(1024 bytes @ 0x20000180)  returns 0x400 (0028ms, 0886ms total)
T2E2C 001:386 JLINK_WriteReg(R0, 0x08000800)  returns 0x00 (0000ms, 0886ms total)
T2E2C 001:386 JLINK_WriteReg(R1, 0x00000400)  returns 0x00 (0000ms, 0886ms total)
T2E2C 001:386 JLINK_WriteReg(R2, 0x20000180)  returns 0x00 (0000ms, 0886ms total)
T2E2C 001:386 JLINK_WriteReg(R3, 0x00000000)  returns 0x00 (0000ms, 0886ms total)
T2E2C 001:386 JLINK_WriteReg(R4, 0x00000000)  returns 0x00 (0000ms, 0886ms total)
T2E2C 001:386 JLINK_WriteReg(R5, 0x00000000)  returns 0x00 (0000ms, 0886ms total)
T2E2C 001:386 JLINK_WriteReg(R6, 0x00000000)  returns 0x00 (0000ms, 0886ms total)
T2E2C 001:386 JLINK_WriteReg(R7, 0x00000000)  returns 0x00 (0000ms, 0886ms total)
T2E2C 001:386 JLINK_WriteReg(R8, 0x00000000)  returns 0x00 (0000ms, 0886ms total)
T2E2C 001:386 JLINK_WriteReg(R9, 0x2000017C)  returns 0x00 (0000ms, 0886ms total)
T2E2C 001:386 JLINK_WriteReg(R10, 0x00000000)  returns 0x00 (0000ms, 0886ms total)
T2E2C 001:386 JLINK_WriteReg(R11, 0x00000000)  returns 0x00 (0000ms, 0886ms total)
T2E2C 001:386 JLINK_WriteReg(R12, 0x00000000)  returns 0x00 (0000ms, 0886ms total)
T2E2C 001:386 JLINK_WriteReg(R13 (SP), 0x20008000)  returns 0x00 (0000ms, 0886ms total)
T2E2C 001:386 JLINK_WriteReg(R14, 0x20000001)  returns 0x00 (0000ms, 0886ms total)
T2E2C 001:386 JLINK_WriteReg(R15 (PC), 0x20000108)  returns 0x00 (0000ms, 0886ms total)
T2E2C 001:386 JLINK_WriteReg(XPSR, 0x01000000)  returns 0x00 (0000ms, 0886ms total)
T2E2C 001:386 JLINK_WriteReg(MSP, 0x20008000)  returns 0x00 (0000ms, 0886ms total)
T2E2C 001:386 JLINK_WriteReg(PSP, 0x20008000)  returns 0x00 (0000ms, 0886ms total)
T2E2C 001:386 JLINK_WriteReg(CFBP, 0x00000000)  returns 0x00 (0000ms, 0886ms total)
T2E2C 001:386 JLINK_SetBPEx(Addr = 0x20000000, Type = 0xFFFFFFF2)  returns 0x0000000B (0000ms, 0886ms total)
T2E2C 001:386 JLINK_Go() -- CPU_ReadMem(4 bytes @ 0xE0001000) (0005ms, 0891ms total)
T2E2C 001:391 JLINK_IsHalted()  returns FALSE (0001ms, 0892ms total)
T2E2C 001:394 JLINK_IsHalted()  returns FALSE (0000ms, 0891ms total)
T2E2C 001:396 JLINK_IsHalted() -- CPU_ReadMem(2 bytes @ 0x20000000)  returns TRUE (0009ms, 0900ms total)
T2E2C 001:405 JLINK_ReadReg(R15 (PC))  returns 0x20000000 (0000ms, 0891ms total)
T2E2C 001:405 JLINK_ClrBPEx(BPHandle = 0x0000000B)  returns 0x00 (0000ms, 0891ms total)
T2E2C 001:405 JLINK_ReadReg(R0)  returns 0x00000000 (0000ms, 0891ms total)
T2E2C 001:405 JLINK_WriteMem(0x20000180, 0x0400 Bytes, ...) - Data: 19 0B 15 F0 6B F8 B2 49 88 60 B1 48 D0 ED 02 0A ... -- CPU_WriteMem(1024 bytes @ 0x20000180)  returns 0x400 (0028ms, 0919ms total)
T2E2C 001:433 JLINK_WriteReg(R0, 0x08000C00)  returns 0x00 (0000ms, 0919ms total)
T2E2C 001:433 JLINK_WriteReg(R1, 0x00000400)  returns 0x00 (0000ms, 0919ms total)
T2E2C 001:433 JLINK_WriteReg(R2, 0x20000180)  returns 0x00 (0000ms, 0919ms total)
T2E2C 001:433 JLINK_WriteReg(R3, 0x00000000)  returns 0x00 (0000ms, 0919ms total)
T2E2C 001:433 JLINK_WriteReg(R4, 0x00000000)  returns 0x00 (0000ms, 0919ms total)
T2E2C 001:433 JLINK_WriteReg(R5, 0x00000000)  returns 0x00 (0000ms, 0919ms total)
T2E2C 001:433 JLINK_WriteReg(R6, 0x00000000)  returns 0x00 (0000ms, 0919ms total)
T2E2C 001:433 JLINK_WriteReg(R7, 0x00000000)  returns 0x00 (0000ms, 0919ms total)
T2E2C 001:433 JLINK_WriteReg(R8, 0x00000000)  returns 0x00 (0000ms, 0919ms total)
T2E2C 001:433 JLINK_WriteReg(R9, 0x2000017C)  returns 0x00 (0000ms, 0919ms total)
T2E2C 001:433 JLINK_WriteReg(R10, 0x00000000)  returns 0x00 (0000ms, 0919ms total)
T2E2C 001:433 JLINK_WriteReg(R11, 0x00000000)  returns 0x00 (0000ms, 0919ms total)
T2E2C 001:433 JLINK_WriteReg(R12, 0x00000000)  returns 0x00 (0000ms, 0919ms total)
T2E2C 001:433 JLINK_WriteReg(R13 (SP), 0x20008000)  returns 0x00 (0000ms, 0919ms total)
T2E2C 001:433 JLINK_WriteReg(R14, 0x20000001)  returns 0x00 (0000ms, 0919ms total)
T2E2C 001:433 JLINK_WriteReg(R15 (PC), 0x20000108)  returns 0x00 (0000ms, 0919ms total)
T2E2C 001:433 JLINK_WriteReg(XPSR, 0x01000000)  returns 0x00 (0000ms, 0919ms total)
T2E2C 001:433 JLINK_WriteReg(MSP, 0x20008000)  returns 0x00 (0000ms, 0919ms total)
T2E2C 001:433 JLINK_WriteReg(PSP, 0x20008000)  returns 0x00 (0000ms, 0919ms total)
T2E2C 001:433 JLINK_WriteReg(CFBP, 0x00000000)  returns 0x00 (0000ms, 0919ms total)
T2E2C 001:433 JLINK_SetBPEx(Addr = 0x20000000, Type = 0xFFFFFFF2)  returns 0x0000000C (0000ms, 0919ms total)
T2E2C 001:433 JLINK_Go() -- CPU_ReadMem(4 bytes @ 0xE0001000) (0005ms, 0924ms total)
T2E2C 001:438 JLINK_IsHalted()  returns FALSE (0001ms, 0925ms total)
T2E2C 001:442 JLINK_IsHalted() -- CPU_ReadMem(2 bytes @ 0x20000000)  returns TRUE (0009ms, 0933ms total)
T2E2C 001:451 JLINK_ReadReg(R15 (PC))  returns 0x20000000 (0000ms, 0924ms total)
T2E2C 001:451 JLINK_ClrBPEx(BPHandle = 0x0000000C)  returns 0x00 (0000ms, 0924ms total)
T2E2C 001:451 JLINK_ReadReg(R0)  returns 0x00000000 (0000ms, 0924ms total)
T2E2C 001:451 JLINK_WriteMem(0x20000180, 0x0400 Bytes, ...) - Data: 0F E0 BF 48 90 ED 02 0A DF ED BF 0A B4 EE E0 0A ... -- CPU_WriteMem(1024 bytes @ 0x20000180)  returns 0x400 (0028ms, 0952ms total)
T2E2C 001:479 JLINK_WriteReg(R0, 0x08001000)  returns 0x00 (0000ms, 0952ms total)
T2E2C 001:479 JLINK_WriteReg(R1, 0x00000400)  returns 0x00 (0000ms, 0952ms total)
T2E2C 001:479 JLINK_WriteReg(R2, 0x20000180)  returns 0x00 (0000ms, 0952ms total)
T2E2C 001:479 JLINK_WriteReg(R3, 0x00000000)  returns 0x00 (0000ms, 0952ms total)
T2E2C 001:479 JLINK_WriteReg(R4, 0x00000000)  returns 0x00 (0000ms, 0952ms total)
T2E2C 001:479 JLINK_WriteReg(R5, 0x00000000)  returns 0x00 (0000ms, 0952ms total)
T2E2C 001:479 JLINK_WriteReg(R6, 0x00000000)  returns 0x00 (0000ms, 0952ms total)
T2E2C 001:479 JLINK_WriteReg(R7, 0x00000000)  returns 0x00 (0000ms, 0952ms total)
T2E2C 001:479 JLINK_WriteReg(R8, 0x00000000)  returns 0x00 (0000ms, 0952ms total)
T2E2C 001:479 JLINK_WriteReg(R9, 0x2000017C)  returns 0x00 (0000ms, 0952ms total)
T2E2C 001:479 JLINK_WriteReg(R10, 0x00000000)  returns 0x00 (0000ms, 0952ms total)
T2E2C 001:479 JLINK_WriteReg(R11, 0x00000000)  returns 0x00 (0000ms, 0952ms total)
T2E2C 001:479 JLINK_WriteReg(R12, 0x00000000)  returns 0x00 (0000ms, 0952ms total)
T2E2C 001:479 JLINK_WriteReg(R13 (SP), 0x20008000)  returns 0x00 (0000ms, 0952ms total)
T2E2C 001:479 JLINK_WriteReg(R14, 0x20000001)  returns 0x00 (0000ms, 0952ms total)
T2E2C 001:479 JLINK_WriteReg(R15 (PC), 0x20000108)  returns 0x00 (0000ms, 0952ms total)
T2E2C 001:479 JLINK_WriteReg(XPSR, 0x01000000)  returns 0x00 (0000ms, 0952ms total)
T2E2C 001:479 JLINK_WriteReg(MSP, 0x20008000)  returns 0x00 (0000ms, 0952ms total)
T2E2C 001:479 JLINK_WriteReg(PSP, 0x20008000)  returns 0x00 (0000ms, 0952ms total)
T2E2C 001:479 JLINK_WriteReg(CFBP, 0x00000000)  returns 0x00 (0000ms, 0952ms total)
T2E2C 001:479 JLINK_SetBPEx(Addr = 0x20000000, Type = 0xFFFFFFF2)  returns 0x0000000D (0000ms, 0952ms total)
T2E2C 001:479 JLINK_Go() -- CPU_ReadMem(4 bytes @ 0xE0001000) (0005ms, 0957ms total)
T2E2C 001:484 JLINK_IsHalted()  returns FALSE (0001ms, 0958ms total)
T2E2C 001:493 JLINK_IsHalted() -- CPU_ReadMem(2 bytes @ 0x20000000)  returns TRUE (0009ms, 0966ms total)
T2E2C 001:502 JLINK_ReadReg(R15 (PC))  returns 0x20000000 (0000ms, 0957ms total)
T2E2C 001:502 JLINK_ClrBPEx(BPHandle = 0x0000000D)  returns 0x00 (0000ms, 0957ms total)
T2E2C 001:502 JLINK_ReadReg(R0)  returns 0x00000000 (0000ms, 0957ms total)
T2E2C 001:503 JLINK_WriteMem(0x20000180, 0x0400 Bytes, ...) - Data: F1 EE 10 FA 03 D2 01 20 CF 49 08 70 02 E0 00 20 ... -- CPU_WriteMem(1024 bytes @ 0x20000180)  returns 0x400 (0028ms, 0985ms total)
T2E2C 001:531 JLINK_WriteReg(R0, 0x08001400)  returns 0x00 (0000ms, 0985ms total)
T2E2C 001:531 JLINK_WriteReg(R1, 0x00000400)  returns 0x00 (0000ms, 0985ms total)
T2E2C 001:531 JLINK_WriteReg(R2, 0x20000180)  returns 0x00 (0000ms, 0985ms total)
T2E2C 001:531 JLINK_WriteReg(R3, 0x00000000)  returns 0x00 (0000ms, 0985ms total)
T2E2C 001:531 JLINK_WriteReg(R4, 0x00000000)  returns 0x00 (0000ms, 0985ms total)
T2E2C 001:531 JLINK_WriteReg(R5, 0x00000000)  returns 0x00 (0000ms, 0985ms total)
T2E2C 001:531 JLINK_WriteReg(R6, 0x00000000)  returns 0x00 (0000ms, 0985ms total)
T2E2C 001:531 JLINK_WriteReg(R7, 0x00000000)  returns 0x00 (0000ms, 0985ms total)
T2E2C 001:531 JLINK_WriteReg(R8, 0x00000000)  returns 0x00 (0000ms, 0985ms total)
T2E2C 001:531 JLINK_WriteReg(R9, 0x2000017C)  returns 0x00 (0000ms, 0985ms total)
T2E2C 001:531 JLINK_WriteReg(R10, 0x00000000)  returns 0x00 (0000ms, 0985ms total)
T2E2C 001:531 JLINK_WriteReg(R11, 0x00000000)  returns 0x00 (0000ms, 0985ms total)
T2E2C 001:531 JLINK_WriteReg(R12, 0x00000000)  returns 0x00 (0000ms, 0985ms total)
T2E2C 001:531 JLINK_WriteReg(R13 (SP), 0x20008000)  returns 0x00 (0000ms, 0985ms total)
T2E2C 001:531 JLINK_WriteReg(R14, 0x20000001)  returns 0x00 (0000ms, 0985ms total)
T2E2C 001:531 JLINK_WriteReg(R15 (PC), 0x20000108)  returns 0x00 (0000ms, 0985ms total)
T2E2C 001:531 JLINK_WriteReg(XPSR, 0x01000000)  returns 0x00 (0000ms, 0985ms total)
T2E2C 001:531 JLINK_WriteReg(MSP, 0x20008000)  returns 0x00 (0000ms, 0985ms total)
T2E2C 001:531 JLINK_WriteReg(PSP, 0x20008000)  returns 0x00 (0000ms, 0985ms total)
T2E2C 001:531 JLINK_WriteReg(CFBP, 0x00000000)  returns 0x00 (0000ms, 0985ms total)
T2E2C 001:531 JLINK_SetBPEx(Addr = 0x20000000, Type = 0xFFFFFFF2)  returns 0x0000000E (0000ms, 0985ms total)
T2E2C 001:531 JLINK_Go() -- CPU_ReadMem(4 bytes @ 0xE0001000) (0004ms, 0989ms total)
T2E2C 001:536 JLINK_IsHalted()  returns FALSE (0000ms, 0989ms total)
T2E2C 001:538 JLINK_IsHalted()  returns FALSE (0000ms, 0989ms total)
T2E2C 001:544 JLINK_IsHalted() -- CPU_ReadMem(2 bytes @ 0x20000000)  returns TRUE (0009ms, 0998ms total)
T2E2C 001:553 JLINK_ReadReg(R15 (PC))  returns 0x20000000 (0000ms, 0989ms total)
T2E2C 001:553 JLINK_ClrBPEx(BPHandle = 0x0000000E)  returns 0x00 (0000ms, 0989ms total)
T2E2C 001:553 JLINK_ReadReg(R0)  returns 0x00000000 (0000ms, 0989ms total)
T2E2C 001:554 JLINK_WriteMem(0x20000180, 0x0400 Bytes, ...) - Data: D0 ED 16 0A 90 ED 0F 1A FA EE 04 1A 21 EE 21 1A ... -- CPU_WriteMem(1024 bytes @ 0x20000180)  returns 0x400 (0027ms, 1016ms total)
T2E2C 001:581 JLINK_WriteReg(R0, 0x08001800)  returns 0x00 (0000ms, 1016ms total)
T2E2C 001:581 JLINK_WriteReg(R1, 0x00000400)  returns 0x00 (0000ms, 1016ms total)
T2E2C 001:581 JLINK_WriteReg(R2, 0x20000180)  returns 0x00 (0000ms, 1016ms total)
T2E2C 001:581 JLINK_WriteReg(R3, 0x00000000)  returns 0x00 (0001ms, 1017ms total)
T2E2C 001:582 JLINK_WriteReg(R4, 0x00000000)  returns 0x00 (0000ms, 1017ms total)
T2E2C 001:582 JLINK_WriteReg(R5, 0x00000000)  returns 0x00 (0000ms, 1017ms total)
T2E2C 001:582 JLINK_WriteReg(R6, 0x00000000)  returns 0x00 (0000ms, 1017ms total)
T2E2C 001:582 JLINK_WriteReg(R7, 0x00000000)  returns 0x00 (0000ms, 1017ms total)
T2E2C 001:582 JLINK_WriteReg(R8, 0x00000000)  returns 0x00 (0000ms, 1017ms total)
T2E2C 001:582 JLINK_WriteReg(R9, 0x2000017C)  returns 0x00 (0000ms, 1017ms total)
T2E2C 001:582 JLINK_WriteReg(R10, 0x00000000)  returns 0x00 (0000ms, 1017ms total)
T2E2C 001:582 JLINK_WriteReg(R11, 0x00000000)  returns 0x00 (0000ms, 1017ms total)
T2E2C 001:582 JLINK_WriteReg(R12, 0x00000000)  returns 0x00 (0000ms, 1017ms total)
T2E2C 001:582 JLINK_WriteReg(R13 (SP), 0x20008000)  returns 0x00 (0000ms, 1017ms total)
T2E2C 001:582 JLINK_WriteReg(R14, 0x20000001)  returns 0x00 (0000ms, 1017ms total)
T2E2C 001:582 JLINK_WriteReg(R15 (PC), 0x20000108)  returns 0x00 (0000ms, 1017ms total)
T2E2C 001:582 JLINK_WriteReg(XPSR, 0x01000000)  returns 0x00 (0000ms, 1017ms total)
T2E2C 001:582 JLINK_WriteReg(MSP, 0x20008000)  returns 0x00 (0000ms, 1017ms total)
T2E2C 001:582 JLINK_WriteReg(PSP, 0x20008000)  returns 0x00 (0000ms, 1017ms total)
T2E2C 001:582 JLINK_WriteReg(CFBP, 0x00000000)  returns 0x00 (0000ms, 1017ms total)
T2E2C 001:582 JLINK_SetBPEx(Addr = 0x20000000, Type = 0xFFFFFFF2)  returns 0x0000000F (0000ms, 1017ms total)
T2E2C 001:582 JLINK_Go() -- CPU_ReadMem(4 bytes @ 0xE0001000) (0004ms, 1021ms total)
T2E2C 001:586 JLINK_IsHalted()  returns FALSE (0001ms, 1022ms total)
T2E2C 001:589 JLINK_IsHalted()  returns FALSE (0000ms, 1021ms total)
T2E2C 001:591 JLINK_IsHalted() -- CPU_ReadMem(2 bytes @ 0x20000000)  returns TRUE (0009ms, 1030ms total)
T2E2C 001:600 JLINK_ReadReg(R15 (PC))  returns 0x20000000 (0000ms, 1021ms total)
T2E2C 001:600 JLINK_ClrBPEx(BPHandle = 0x0000000F)  returns 0x00 (0000ms, 1021ms total)
T2E2C 001:600 JLINK_ReadReg(R0)  returns 0x00000000 (0000ms, 1021ms total)
T2E2C 001:600 JLINK_WriteMem(0x20000180, 0x0400 Bytes, ...) - Data: B6 FB 1D 48 D0 ED 14 1A B0 EE 61 1A D0 ED 13 1A ... -- CPU_WriteMem(1024 bytes @ 0x20000180)  returns 0x400 (0028ms, 1049ms total)
T2E2C 001:629 JLINK_WriteReg(R0, 0x08001C00)  returns 0x00 (0000ms, 1049ms total)
T2E2C 001:629 JLINK_WriteReg(R1, 0x00000400)  returns 0x00 (0000ms, 1049ms total)
T2E2C 001:629 JLINK_WriteReg(R2, 0x20000180)  returns 0x00 (0000ms, 1049ms total)
T2E2C 001:629 JLINK_WriteReg(R3, 0x00000000)  returns 0x00 (0000ms, 1049ms total)
T2E2C 001:629 JLINK_WriteReg(R4, 0x00000000)  returns 0x00 (0000ms, 1049ms total)
T2E2C 001:629 JLINK_WriteReg(R5, 0x00000000)  returns 0x00 (0000ms, 1049ms total)
T2E2C 001:629 JLINK_WriteReg(R6, 0x00000000)  returns 0x00 (0000ms, 1049ms total)
T2E2C 001:629 JLINK_WriteReg(R7, 0x00000000)  returns 0x00 (0000ms, 1049ms total)
T2E2C 001:629 JLINK_WriteReg(R8, 0x00000000)  returns 0x00 (0000ms, 1049ms total)
T2E2C 001:629 JLINK_WriteReg(R9, 0x2000017C)  returns 0x00 (0000ms, 1049ms total)
T2E2C 001:629 JLINK_WriteReg(R10, 0x00000000)  returns 0x00 (0000ms, 1049ms total)
T2E2C 001:629 JLINK_WriteReg(R11, 0x00000000)  returns 0x00 (0000ms, 1049ms total)
T2E2C 001:629 JLINK_WriteReg(R12, 0x00000000)  returns 0x00 (0000ms, 1049ms total)
T2E2C 001:629 JLINK_WriteReg(R13 (SP), 0x20008000)  returns 0x00 (0000ms, 1049ms total)
T2E2C 001:629 JLINK_WriteReg(R14, 0x20000001)  returns 0x00 (0000ms, 1049ms total)
T2E2C 001:629 JLINK_WriteReg(R15 (PC), 0x20000108)  returns 0x00 (0000ms, 1049ms total)
T2E2C 001:629 JLINK_WriteReg(XPSR, 0x01000000)  returns 0x00 (0000ms, 1049ms total)
T2E2C 001:629 JLINK_WriteReg(MSP, 0x20008000)  returns 0x00 (0000ms, 1049ms total)
T2E2C 001:629 JLINK_WriteReg(PSP, 0x20008000)  returns 0x00 (0000ms, 1049ms total)
T2E2C 001:629 JLINK_WriteReg(CFBP, 0x00000000)  returns 0x00 (0000ms, 1049ms total)
T2E2C 001:629 JLINK_SetBPEx(Addr = 0x20000000, Type = 0xFFFFFFF2)  returns 0x00000010 (0000ms, 1049ms total)
T2E2C 001:629 JLINK_Go() -- CPU_ReadMem(4 bytes @ 0xE0001000) (0005ms, 1054ms total)
T2E2C 001:634 JLINK_IsHalted()  returns FALSE (0001ms, 1055ms total)
T2E2C 001:637 JLINK_IsHalted()  returns FALSE (0000ms, 1054ms total)
T2E2C 001:639 JLINK_IsHalted() -- CPU_ReadMem(2 bytes @ 0x20000000)  returns TRUE (0009ms, 1063ms total)
T2E2C 001:648 JLINK_ReadReg(R15 (PC))  returns 0x20000000 (0000ms, 1054ms total)
T2E2C 001:648 JLINK_ClrBPEx(BPHandle = 0x00000010)  returns 0x00 (0000ms, 1054ms total)
T2E2C 001:648 JLINK_ReadReg(R0)  returns 0x00000000 (0000ms, 1054ms total)
T2E2C 001:648 JLINK_WriteMem(0x20000180, 0x0400 Bytes, ...) - Data: 69 EE A9 0A 49 EE 09 0A 48 EE A8 0A B0 EE 60 0A ... -- CPU_WriteMem(1024 bytes @ 0x20000180)  returns 0x400 (0028ms, 1082ms total)
T2E2C 001:676 JLINK_WriteReg(R0, 0x08002000)  returns 0x00 (0000ms, 1082ms total)
